! 2-port S-parameter data
! S-port 1 net1
! S-port 2 net2
# GHz S DB R 50
!freq dBS11 angS11 dBS21 angS21 dBS12 angS12 dBS22 angS22
0.5 -0.0144470697146476 -30.8341103671582 -47.3521796161537 59.1193461520117 -47.3521796161537 59.1193461520117 -0.0143481398762685 -30.8577403827436
0.55 -0.0162357330102883 -34.0739353452441 -46.7824451524109 55.7897846588457 -46.7824451524109 55.7897846588458 -0.0161440988652772 -34.0992778850253
0.6 -0.0181654047890715 -37.3628180209172 -46.3828253303991 52.257884844308 -46.3828253303991 52.2578848443081 -0.0180732725547618 -37.3894137101991
0.65 -0.0202545074526602 -40.7073934832499 -46.1116247688796 48.886827753618 -46.1116247688796 48.886827753618 -0.0201620925465883 -40.7349552662356
0.7 -0.0225259400721208 -44.1150110536359 -45.9600489897709 45.4806860566916 -45.9600489897709 45.4806860566916 -0.0224337087575509 -44.1432156610835
0.75 -0.0250056897657939 -47.5938738473057 -45.9459870646743 42.0017216667564 -45.9459870646743 42.0017216667564 -0.0249142764775823 -47.6223587663558
0.8 -0.0277241503044977 -51.1532076087774 -46.0919890990074 38.4416323147501 -46.0919890990074 38.4416323147501 -0.0276344116153345 -51.1815673918883
0.85 -0.0307173207643115 -54.8034650237874 -46.4318236664209 34.793707470643 -46.4318236664209 34.793707470643 -0.0306304079835987 -54.8312476574041
0.9 -0.0340282842638292 -58.5565807231554 -47.0189013044008 31.0512388739928 -47.0189013044008 31.0512388739928 -0.033945740708625 -58.5832834860428
0.95 -0.0377091218184809 -62.4262908499693 -47.9420426670204 27.2092190058872 -47.9420426670204 27.2092190058872 -0.0376330193448321 -62.4513562275934
1 -0.0418234203934918 -66.4285393040693 -49.3615106436855 23.2696251016654 -49.3615106436855 23.2696251016654 -0.0417565542443768 -66.4513514430813
1.05 -0.0464495954280192 -70.5820012700218 -51.6092957985958 19.2603967610953 -51.6092957985958 19.2603967610953 -0.0463957647534924 -70.6018830965128
1.1 -0.0516853359256869 -74.9087676624237 -55.5741772231407 15.3376911418759 -55.5741772231407 15.3376911418759 -0.0516497524746368 -74.9249798047331
1.15 -0.057653617442731 -79.4352550548766 -65.9324355232134 13.4711897232216 -65.9324355232134 13.4711897232216 -0.0576435083042648 -79.4469980383368
1.2 -0.064510943186228 -84.1934392644005 -61.3722693947805 -177.420637588257 -61.3722693947805 -177.420637588257 -0.0645364525884991 -84.1998615267779
1.25 -0.0724588482912283 -89.2225655345713 -52.4422671595061 179.012780951292 -52.4422671595061 179.012780951292 -0.0725344103949912 -89.2227813028086
1.3 -0.0817604293488471 -94.5715818433938 -47.8721930565278 174.025094958992 -47.8721930565278 174.025094958992 -0.0819068995925477 -94.5647062177173
1.35 -0.0927652929647121 -100.302711919283 -44.9013071264203 168.514527217195 -44.9013071264203 168.514527217195 -0.0930133338241661 -100.287925778518
1.4 -0.105950455619202 -106.496902667997 -42.9949068095619 162.580650615911 -42.9949068095619 162.580650615911 -0.106346065612897 -106.473569466501
1.45 -0.121996487521241 -113.262515278111 -42.203731124041 156.308619689437 -42.203731124041 156.308619689437 -0.122610330261248 -113.230391723626
1.5 -0.14195463013782 -120.749979595896 -43.3088615821713 150.207695266421 -43.3088615821713 150.207695266421 -0.142898413250948 -120.709598806186
1.55 -0.167682881254567 -129.178189552305 -51.4662904297397 152.427253686597 -51.4662904297397 152.427253686597 -0.169139579290877 -129.131578410975
1.6 -0.203174106213041 -138.885888210841 -41.6098515368107 -59.3374152754192 -41.6098515368107 -59.3374152754192 -0.205457361111717 -138.83796587561
1.65 -0.259177512397783 -150.440735117361 -29.7867645437722 -67.0213710253404 -29.7867645437722 -67.0213710253404 -0.262858500984666 -150.402208849627
1.7 -0.371433190658797 -164.890606401777 -21.5034718415478 -80.9709258284811 -21.5034718415478 -80.9709258284811 -0.377644276960739 -164.884512363592
1.75 -0.681999025045123 175.647605880601 -14.2234000915862 -100.837134908961 -14.2234000915862 -100.837134908961 -0.69329107558076 175.569102940889
1.8 -1.82133112514645 147.129167228167 -7.57592539498092 -130.678847468694 -7.57592539498092 -130.678847468694 -1.84481937677134 146.831921091461
1.85 -6.14794835805891 107.964702911944 -2.74584684574671 -173.518398843533 -2.74584684574671 -173.518398843533 -6.21415412687613 106.994420461541
1.9 -19.1162418308012 87.0651359054437 -1.04152836419315 143.354094047111 -1.04152836419315 143.354094047111 -19.7216440013139 82.5252922720343
1.95 -18.9173033189473 -175.267098738979 -0.827970434785906 111.247491637961 -0.827970434785901 111.247491637961 -19.0043967205887 -169.633640136319
2 -15.5831144249495 170.947184797801 -0.795983848687242 86.6860361792236 -0.795983848687243 86.6860361792236 -15.558663854791 174.484279662772
2.05 -16.1492333218277 152.42951375966 -0.726391752476297 65.8853681172574 -0.726391752476297 65.8853681172573 -16.1147127290991 155.772285832021
2.1 -18.5079511059178 133.917232967384 -0.645864188131527 47.2005329672145 -0.645864188131527 47.2005329672145 -18.4727151202838 137.607466826213
2.15 -22.4514185742461 114.826987514451 -0.584962587524782 29.9808016293265 -0.584962587524783 29.9808016293265 -22.4309956382192 119.347006067267
2.2 -28.6601601235771 91.3115992360078 -0.55091723500592 13.9201206336843 -0.550917235005917 13.9201206336843 -28.7448962830992 97.545344519359
2.25 -38.6549533097133 31.3308165739818 -0.537701080763409 -1.19114054945329 -0.537701080763392 -1.19114054945329 -39.7924661448639 37.7039109149299
2.3 -35.3021645204305 -62.9102219228785 -0.536497054398817 -15.5381793820426 -0.536497054398818 -15.5381793820426 -35.1734519066697 -61.907006387071
2.35 -32.0275317538431 -87.7858417452797 -0.540793885964377 -29.2904779813387 -0.540793885964379 -29.2904779813387 -31.4765832000797 -82.7958406781452
2.4 -31.7977539863246 -99.636990661913 -0.547423924161839 -42.5961987408103 -0.547423924161842 -42.5961987408103 -30.7319533757004 -91.1196139630069
2.45 -33.5303735883829 -103.191273311883 -0.555700612024455 -55.5789143267355 -0.555700612024458 -55.5789143267355 -31.3299548975754 -91.3354951461064
2.5 -36.5975749491497 -91.2513309945102 -0.56610131144325 -68.3396661629018 -0.566101311443248 -68.3396661629018 -32.1000342565942 -82.6611153406358
2.55 -37.4959714512688 -57.4313679649772 -0.579209934757749 -80.9629659340853 -0.579209934757746 -80.9629659340853 -31.7777026857991 -70.0640938857719
2.6 -34.7510092768138 -36.6684675840005 -0.59518511134487 -93.524532313647 -0.595185111344872 -93.524532313647 -30.5500140922225 -63.5978108441092
2.65 -32.7125559714202 -33.6676832900524 -0.613777195184947 -106.09876921561 -0.613777195184943 -106.09876921561 -29.5719764941624 -65.7692655448632
2.7 -32.4273808059942 -36.5872073889226 -0.634779400345111 -118.764452812551 -0.634779400345111 -118.764452812551 -29.5201074430903 -75.047906971616
2.75 -34.5112691197085 -38.4335498708979 -0.658708146257639 -131.607638947209 -0.65870814625764 -131.607638947209 -30.819470579469 -92.4458218618675
2.8 -41.2897106531007 -13.5179884637365 -0.687434667458492 -144.721451730391 -0.687434667458495 -144.721451730391 -33.6342235041983 -128.313645657091
2.85 -35.4919213309121 73.9298867918147 -0.724417469440387 -158.203365396263 -0.724417469440385 -158.203365396263 -33.0683244575444 163.24133673477
2.9 -27.5369273031854 77.7198107323149 -0.774132810815738 -172.152274136616 -0.774132810815736 -172.152274136616 -27.4029883129304 118.338415173663
2.95 -22.9052345744731 69.2823415260378 -0.840376736652606 173.329397275152 -0.840376736652598 173.329397275152 -22.9635304450431 94.0479707981145
3 -19.9710551086242 57.7299032986789 -0.923561825516963 158.118870673222 -0.923561825516965 158.118870673222 -20.0150075262099 75.657867960578
3.05 -18.3504603287494 44.7761508612641 -1.01835637127974 142.026698228491 -1.01835637127974 142.026698228491 -18.3409513146036 59.5027147305494
3.1 -18.2397616927424 31.4321388934893 -1.11574736836237 124.70255802742 -1.11574736836238 124.70255802742 -18.1189977390498 45.3157351465105
3.15 -20.9520726333259 21.5059042824272 -1.21991352152964 105.481447704436 -1.21991352152964 105.481447704436 -20.3645758745442 38.0665956192978
3.2 -28.5172994546207 88.8388361969109 -1.40461068497308 83.231169872202 -1.40461068497307 83.231169872202 -24.3468333489061 87.7193662215392
3.25 -14.1017273105614 123.229289806146 -1.94265306622378 56.6403180787233 -1.94265306622378 56.6403180787233 -13.740521874191 119.303335095513
3.3 -7.04817296034387 99.9570254868806 -3.39090843509181 26.1225718110465 -3.39090843509181 26.1225718110464 -6.97392677903169 99.2582663877644
3.35 -3.50993537025587 72.7245446157194 -6.13371274203767 -3.96267689316084 -6.13371274203768 -3.96267689316084 -3.49126814014323 73.0344833839434
3.4 -1.90244741972801 49.2971268237807 -9.80419166317261 -29.0360328465323 -9.8041916631726 -29.0360328465323 -1.90085652954794 49.9837449232136
3.45 -1.19363786170825 30.9890058693401 -13.7990762036682 -48.509764315362 -13.7990762036682 -48.509764315362 -1.1983003830476 31.8162211053384
3.5 -0.857438592921732 16.6337889610694 -17.7891732881352 -63.8266725124238 -17.7891732881352 -63.8266725124239 -0.864436057231221 17.499430260731
3.55 -0.677900548323908 4.98432095357842 -21.6557039578982 -76.3826433730665 -21.6557039578982 -76.3826433730665 -0.685594646908811 5.8407064351828
3.6 -0.569699119285669 -4.81067418348112 -25.3514831802363 -87.1328344030482 -25.3514831802363 -87.1328344030483 -0.577333448065593 -3.98644385138266
3.65 -0.497442372468798 -13.2899092725376 -28.8321639450708 -96.6930274494874 -28.8321639450708 -96.6930274494873 -0.504621195164032 -12.5088106112966
3.7 -0.4452373690734 -20.7984219546173 -32.0283736987704 -105.432373808542 -32.0283736987704 -105.432373808542 -0.45167796496843 -20.0660982273866
3.75 -0.405203998730511 -27.5646038826939 -34.8374603494778 -113.417460575541 -34.8374603494778 -113.417460575541 -0.410585847730128 -26.887748886118
3.8 -0.371313500008755 -33.7482779269469 -36.9482299717879 -120.032917345404 -36.9482299717879 -120.032917345404 -0.380184844208617 -33.1575869454263
3.85 -0.346830885515975 -39.4847554241779 -38.6218662934531 -129.509464410045 -38.6218662934531 -129.509464410045 -0.35766295539531 -38.8748897569428
3.9 -0.32570620454401 -44.8178127618239 -39.7854630813828 -135.952986012166 -39.7854630813828 -135.952986012166 -0.333763906346671 -44.2480126961657
3.95 -0.307431972338139 -49.8338315224183 -40.3519197945763 -141.579853423886 -40.3519197945763 -141.579853423886 -0.314363397596531 -49.3042418083355
4 -0.29168278166943 -54.5821693262616 -40.4920755948768 -146.530000068692 -40.4920755948768 -146.530000068692 -0.297915744011722 -54.0900993191523
4.05 -0.278014068291603 -59.1026801494048 -40.34923736969 -150.956536838326 -40.34923736969 -150.956536838326 -0.283727267286859 -58.6456102797588
4.1 -0.266067477417095 -63.427875824646 -40.0380720925809 -155.016652218828 -40.0380720925809 -155.016652218828 -0.271359493427105 -63.0035340690165
4.15 -0.255561844475786 -67.584609979548 -39.639656532299 -158.83171688759 -39.639656532299 -158.83171688759 -0.26049694954528 -67.1909511626476
4.2 -0.246274642444637 -71.5953486712271 -39.2060894918409 -162.482573431007 -39.2060894918409 -162.482573431007 -0.250899256080815 -71.2305369333487
4.25 -0.238027405791476 -75.4791177428012 -38.7683447232328 -166.019304683133 -38.7683447232328 -166.019304683133 -0.242377231578726 -75.1415136999413
4.3 -0.230675133161819 -79.2522170753191 -38.3433711067928 -169.472244106079 -38.3433711067928 -169.472244106079 -0.234778713596299 -78.9403680929171
4.35 -0.224098590795799 -82.9287684676883 -37.9392926663262 -172.860088644226 -37.9392926663262 -172.860088644226 -0.227979279700028 -82.6414017286104
4.4 -0.21819864731435 -86.5211443337728 -37.5588462948554 -176.195005799313 -37.5588462948554 -176.195005799313 -0.221875804333846 -86.25716308678
4.45 -0.212892045490992 -90.0403111950804 -37.2015218978803 -179.485627005055 -37.2015218978803 -179.485627005055 -0.216381816555953 -89.7987950597764
4.5 -0.208108222608163 -93.4961130151509 -36.8648319643005 177.261240674417 -36.8648319643005 177.261240674417 -0.211424091602431 -93.2763237353087
